
T1F9C 000:255 SEGGER J-Link V4.50j Log File (0003ms, 0258ms total)
T1F9C 000:255 DLL Compiled: Jun 26 2012 09:19:07 (0003ms, 0258ms total)
T1F9C 000:255 Logging started @ 2019-03-17 12:00 (0003ms, 0258ms total)
T1F9C 000:258 JLINK_SetWarnOutHandler(...) (0000ms, 0258ms total)
T1F9C 000:258 JLINK_OpenEx(...)
Firmware: J-Link ARM V8 compiled Jan 31 2018 18:34:52
Hardware: V8.00
S/N: 20080643
Feature(s): RDI,FlashDL,FlashBP,JFlash,GDBFull  returns O.K. (0116ms, 0374ms total)
T1F9C 000:375 JLINK_SetErrorOutHandler(...) (0000ms, 0374ms total)
T1F9C 000:375 JLINK_ExecCommand("Device = STM32F103VE", ...)
                JLINK_ExecCommand("map ram 0x20000000 - 0x2000FFFF", ...)  returns 0x00 (0000ms, 0001ms total)
                JLINK_AddMirrorAreaEx(Addr = 0x00000000, Size = 0x00000000) (0000ms, 0001ms total)
              Device "STM32F103VE" selected (512 KB flash, 64 KB RAM).  returns 0x00 (0007ms, 0381ms total)
T1F9C 000:383 JLINK_ExecCommand("ProjectFile = "F:\北京康杰斯\大鱼电子Bliz平衡车资料V2.0\2，dyuRobot_Bliz平衡车程序\dyuRobot_Bliz控制板_MPU6050测试代码\USER\JLinkSettings.ini"", ...)  returns 0x00 (0002ms, 0384ms total)
T1F9C 000:385 JLINK_ExecCommand("DisableConnectionTimeout", ...)  returns 0x00 (0000ms, 0384ms total)
T1F9C 000:385 JLINK_TIF_Select(JLINKARM_TIF_JTAG)  returns 0x00 (0000ms, 0384ms total)
T1F9C 000:385 JLINK_SetSpeed(2000) (0000ms, 0384ms total)
T1F9C 000:386 JLINK_GetHardwareVersion()  returns 0x13880 (0000ms, 0385ms total)
T1F9C 000:386 JLINK_GetDLLVersion()  returns 45010 (0000ms, 0385ms total)
T1F9C 000:386 JLINK_GetFirmwareString(...) (0000ms, 0385ms total)
T1F9C 000:391 JLINK_GetDLLVersion()  returns 45010 (0000ms, 0385ms total)
T1F9C 000:391 JLINK_GetCompileDateTime() (0000ms, 0385ms total)
T1F9C 000:391 JLINK_GetFirmwareString(...) (0000ms, 0385ms total)
T1F9C 000:392 JLINK_GetHardwareVersion()  returns 0x13880 (0000ms, 0385ms total)
T1F9C 000:394 JLINK_GetIdData(...) >0x2F8 JTAG>TotalIRLen = 9, IRPrint = 0x0011 >0x30 JTAG> >0x210 JTAG> >0x40 JTAG> >0x40 JTAG> >0x40 JTAG> >0x30 JTAG> >0x40 JTAG> >0x40 JTAG> >0x40 JTAG> >0x40 JTAG> >0x40 JTAG> >0x40 JTAG> >0x40 JTAG> >0x40 JTAG> >0x2F8 JTAG>TotalIRLen = 9, IRPrint = 0x0011 >0x30 JTAG> >0x210 JTAG> >0x80 JTAG> >0x40 JTAG> >0x40 JTAG> >0x50 JTAG> >0x40 JTAG> >0x40 JTAG> >0x40 JTAG> >0x50 JTAG> >0x40 JTAG> >0x50 JTAG> >0x40 JTAG> >0x40 JTAG> >0x40 JTAG> >0x40 JTAG> >0x30 JTAG>
 >0x40 JTAG> >0x50 JTAG> >0x40 JTAG> >0x38 JTAG> >0x80 JTAG> >0x40 JTAG> >0x40 JTAG> >0x50 JTAG> >0x40 JTAG> >0x40 JTAG> >0x40 JTAG> >0x50 JTAG> >0x40 JTAG> >0x40 JTAG> >0x30 JTAG> >0x40 JTAG> >0x40 JTAG> >0x40 JTAG> >0x40 JTAG> >0x40 JTAG> >0x50 JTAG> >0x40 JTAG> >0x80 JTAG> >0x40 JTAG> >0x30 JTAG> >0x40 JTAG> >0x40 JTAG> >0x40 JTAG> >0x40 JTAG> >0x40 JTAG> >0x50 JTAG> >0x40 JTAG> >0x80 JTAG> >0x40 JTAG> >0x30 JTAG> >0x40 JTAG> >0x50 JTAG> >0x40 JTAG> >0x40 JTAG> >0x40 JTAG> >0x30 JTAG> >0x40 JTAG>
 >0x50 JTAG> >0x40 JTAG>Found Cortex-M3 r1p1, Little endian. >0x50 JTAG> >0x50 JTAG> >0x40 JTAG> >0x40 JTAG> >0x30 JTAG> >0x30 JTAG> >0x50 JTAG> >0x40 JTAG> >0x80 JTAG> >0x40 JTAG> >0x30 JTAG> >0x40 JTAG> >0x50 JTAG> >0x40 JTAG> >0x40 JTAG> >0x40 JTAG> >0x30 JTAG> >0x40 JTAG> >0x50 JTAG> >0x40 JTAG>TPIU fitted. >0x40 JTAG> >0x40 JTAG> >0x30 JTAG> >0x40 JTAG> >0x50 JTAG> >0x40 JTAG>ETM fitted. >0x40 JTAG> >0x40 JTAG> >0x30 JTAG> >0x40 JTAG> >0x50 JTAG> >0x40 JTAG> >0x40 JTAG> >0x40 JTAG> >0x30 JTAG>
 >0x40 JTAG> >0x50 JTAG> >0x40 JTAG>FPUnit: 6 code (BP) slots and 2 literal slots >0x40 JTAG> >0x40 JTAG> >0x30 JTAG> >0x40 JTAG> >0x50 JTAG> >0x40 JTAG> >0x40 JTAG> >0x40 JTAG> >0x30 JTAG> >0x40 JTAG> >0x50 JTAG> >0x40 JTAG> ScanLen=9 NumDevices=2 aId[0]=0x3BA00477 aIrRead[0]=0 aScanLen[0]=0 aScanRead[0]=0 (0090ms, 0475ms total)
T1F9C 000:484 JLINK_JTAG_GetDeviceID(DeviceIndex = 0)  returns 0x3BA00477 (0000ms, 0475ms total)
T1F9C 000:484 JLINK_JTAG_GetDeviceInfo(DeviceIndex = 0)  returns 0x00 (0000ms, 0475ms total)
T1F9C 000:484 JLINK_JTAG_GetDeviceID(DeviceIndex = 1)  returns 0x6414041 (0000ms, 0475ms total)
T1F9C 000:484 JLINK_JTAG_GetDeviceInfo(DeviceIndex = 1)  returns 0x00 (0000ms, 0475ms total)
T1F9C 000:484 JLINK_GetDebugInfo(0x100) -- Value=0xE00FF003  returns 0x00 (0001ms, 0476ms total)
T1F9C 000:485 JLINK_ReadMem (0xE00FFFF0, 0x0010 Bytes, ...) -- CPU is running -- CPU_ReadMem(16 bytes @ 0xE00FFFF0) -- Data:  0D 00 00 00 10 00 00 00 05 00 00 00 B1 00 00 00  returns 0x00 (0004ms, 0480ms total)
T1F9C 000:489 JLINK_ReadMem (0xE00FFFD0, 0x0020 Bytes, ...) -- CPU is running -- CPU_ReadMem(32 bytes @ 0xE00FFFD0) -- Data:  00 00 00 00 00 00 00 00 00 00 00 00 00 00 00 00 ...  returns 0x00 (0002ms, 0482ms total)
T1F9C 000:491 JLINK_ReadMem (0xE00FF000, 0x0018 Bytes, ...) -- CPU is running -- CPU_ReadMem(24 bytes @ 0xE00FF000) -- Data:  03 F0 F0 FF 03 20 F0 FF 03 30 F0 FF 03 10 F0 FF ...  returns 0x00 (0002ms, 0484ms total)
T1F9C 000:493 JLINK_ReadMemU32(0xE000ED00, 0x0001 Items, ...) -- CPU is running -- CPU_ReadMem(4 bytes @ 0xE000ED00) -- Data:  31 C2 1F 41  returns 0x01 (0001ms, 0485ms total)
T1F9C 000:494 JLINK_SetResetType(JLINKARM_RESET_TYPE_NORMAL)  returns JLINKARM_RESET_TYPE_NORMAL (0000ms, 0485ms total)
T1F9C 000:494 JLINK_Reset() >0x48 JTAG> >0x80 JTAG> >0x40 JTAG> >0x40 JTAG> >0x50 JTAG> >0x40 JTAG> >0x40 JTAG> >0x40 JTAG> >0x50 JTAG> >0x40 JTAG> >0x40 JTAG> >0x30 JTAG> >0x40 JTAG> >0x40 JTAG> >0x40 JTAG> >0x40 JTAG> >0x40 JTAG> >0x50 JTAG> >0x40 JTAG> >0x80 JTAG> >0x40 JTAG> >0x30 JTAG> >0x40 JTAG> >0x40 JTAG> >0x40 JTAG> >0x40 JTAG> >0x40 JTAG> >0x50 JTAG> >0x40 JTAG> >0x80 JTAG> >0x40 JTAG> >0x30 JTAG> >0x40 JTAG> >0x50 JTAG> >0x40 JTAG> >0x40 JTAG> >0x40 JTAG> >0x30 JTAG> >0x40 JTAG> >0x50 JTAG>
 >0x40 JTAG>Found Cortex-M3 r1p1, Little endian. >0x50 JTAG> >0x50 JTAG> >0x40 JTAG> >0x40 JTAG> >0x30 JTAG> >0x30 JTAG> >0x50 JTAG> >0x40 JTAG> >0x80 JTAG> >0x40 JTAG> >0x30 JTAG> >0x40 JTAG> >0x50 JTAG> >0x40 JTAG> >0x40 JTAG> >0x40 JTAG> >0x30 JTAG> >0x40 JTAG> >0x50 JTAG> >0x40 JTAG>TPIU fitted. >0x40 JTAG> >0x40 JTAG> >0x30 JTAG> >0x40 JTAG> >0x50 JTAG> >0x40 JTAG>ETM fitted. >0x40 JTAG> >0x40 JTAG> >0x30 JTAG> >0x40 JTAG> >0x50 JTAG> >0x40 JTAG> >0x40 JTAG> >0x40 JTAG> >0x30 JTAG> >0x40 JTAG>
 >0x50 JTAG> >0x40 JTAG>FPUnit: 6 code (BP) slots and 2 literal slots >0x40 JTAG> >0x40 JTAG> >0x30 JTAG> >0x40 JTAG> >0x50 JTAG> >0x40 JTAG> >0x40 JTAG> >0x40 JTAG> >0x30 JTAG> >0x40 JTAG> >0x50 JTAG> >0x40 JTAG> -- CPU is running -- CPU_WriteMem(4 bytes @ 0xE000EDF0) -- CPU is running -- CPU_WriteMem(4 bytes @ 0xE000EDFC) -- CPU is running -- CPU_WriteMem(4 bytes @ 0xE000ED0C) -- CPU is running -- CPU_ReadMem(4 bytes @ 0xE000EDF0) -- CPU is running -- CPU_ReadMem(4 bytes @ 0xE000EDF0) -- CPU is running
 -- CPU_WriteMem(4 bytes @ 0xE000EDF0) -- CPU is running -- CPU_WriteMem(4 bytes @ 0xE000EDFC) -- CPU is running -- CPU_ReadMem(4 bytes @ 0xE000EDF0) >0x90 JTAG> >0x40 JTAG> >0x30 JTAG> >0x40 JTAG> >0x50 JTAG> >0x40 JTAG> -- CPU_WriteMem(4 bytes @ 0xE000EDFC) -- CPU_WriteMem(4 bytes @ 0xE0001028) -- CPU_WriteMem(4 bytes @ 0xE0001038) -- CPU_WriteMem(4 bytes @ 0xE0001048) -- CPU_WriteMem(4 bytes @ 0xE0001058) -- CPU_WriteMem(4 bytes @ 0xE0002000) (0095ms, 0580ms total)
T1F9C 000:589 JLINK_ReadReg(R15)  returns 0x08004B20 (0000ms, 0580ms total)
T1F9C 000:589 JLINK_ReadReg(XPSR)  returns 0x01000000 (0000ms, 0580ms total)
T1F9C 000:589 JLINK_Halt()  returns 0x00 (0000ms, 0580ms total)
T1F9C 000:589 JLINK_IsHalted()  returns TRUE (0000ms, 0580ms total)
T1F9C 000:589 JLINK_ReadMemU32(0xE000EDF0, 0x0001 Items, ...) -- CPU_ReadMem(4 bytes @ 0xE000EDF0) -- Data:  03 00 03 00  returns 0x01 (0001ms, 0581ms total)
T1F9C 000:590 JLINK_WriteU32(0xE000EDF0, 0xA05F0003) -- CPU_WriteMem(4 bytes @ 0xE000EDF0)  returns 0x00 (0001ms, 0582ms total)
T1F9C 000:591 JLINK_WriteU32(0xE000EDFC, 0x01000000) -- CPU_WriteMem(4 bytes @ 0xE000EDFC)  returns 0x00 (0001ms, 0583ms total)
T1F9C 000:593 JLINK_GetHWStatus(...)  returns 0x00 (0001ms, 0584ms total)
T1F9C 000:594 JLINK_GetNumBPUnits(Type = 0xFFFFFF00)  returns 0x06 (0000ms, 0584ms total)
T1F9C 000:594 JLINK_GetNumBPUnits(Type = 0xF0)  returns 0x2000 (0000ms, 0584ms total)
T1F9C 000:594 JLINK_GetNumWPUnits()  returns 0x04 (0000ms, 0584ms total)
T1F9C 000:595 JLINK_GetSpeed()  returns 0x7D0 (0000ms, 0584ms total)
T1F9C 000:596 JLINK_ReadMemU32(0xE000E004, 0x0001 Items, ...) -- CPU_ReadMem(4 bytes @ 0xE000E004) -- Data:  01 00 00 00  returns 0x01 (0001ms, 0585ms total)
T1F9C 000:597 JLINK_ReadMemU32(0xE000E004, 0x0001 Items, ...) -- CPU_ReadMem(4 bytes @ 0xE000E004) -- Data:  01 00 00 00  returns 0x01 (0002ms, 0587ms total)
T1F9C 000:599 JLINK_WriteMem(0xE0001000, 0x001C Bytes, ...) -- Data:  01 00 00 00 00 00 00 00 00 00 00 00 00 00 00 00 ... -- CPU_WriteMem(28 bytes @ 0xE0001000)  returns 0x1C (0001ms, 0588ms total)
T1F9C 000:600 JLINK_ReadMem (0xE0001000, 0x001C Bytes, ...) -- CPU_ReadMem(28 bytes @ 0xE0001000) -- Data:  01 00 00 40 00 00 00 00 00 00 00 00 00 00 00 00 ...  returns 0x00 (0001ms, 0589ms total)
T1F9C 000:601 JLINK_ReadReg(R15)  returns 0x08004B20 (0000ms, 0589ms total)
T1F9C 000:602 JLINK_ReadReg(XPSR)  returns 0x01000000 (0000ms, 0590ms total)
T1F9C 000:753 JLINK_SetResetType(JLINKARM_RESET_TYPE_NORMAL)  returns JLINKARM_RESET_TYPE_NORMAL (0000ms, 0590ms total)
T1F9C 000:753 JLINK_Reset() >0x38 JTAG> >0x80 JTAG> >0x40 JTAG> >0x40 JTAG> >0x50 JTAG> >0x40 JTAG> >0x40 JTAG> >0x40 JTAG> >0x50 JTAG> >0x40 JTAG> >0x40 JTAG> >0x30 JTAG> >0x40 JTAG> >0x40 JTAG> >0x40 JTAG> >0x40 JTAG> >0x40 JTAG> >0x50 JTAG> >0x40 JTAG> >0x80 JTAG> >0x40 JTAG> >0x30 JTAG> >0x40 JTAG> >0x40 JTAG> >0x40 JTAG> >0x40 JTAG> >0x40 JTAG> >0x50 JTAG> >0x40 JTAG> >0x80 JTAG> >0x40 JTAG> >0x30 JTAG> >0x40 JTAG> >0x50 JTAG> >0x40 JTAG> >0x40 JTAG> >0x40 JTAG> >0x30 JTAG> >0x40 JTAG> >0x50 JTAG>
 >0x40 JTAG>Found Cortex-M3 r1p1, Little endian. >0x50 JTAG> >0x50 JTAG> >0x40 JTAG> >0x40 JTAG> >0x30 JTAG> >0x30 JTAG> >0x50 JTAG> >0x40 JTAG> >0x80 JTAG> >0x40 JTAG> >0x30 JTAG> >0x40 JTAG> >0x50 JTAG> >0x40 JTAG> >0x40 JTAG> >0x40 JTAG> >0x30 JTAG> >0x40 JTAG> >0x50 JTAG> >0x40 JTAG>TPIU fitted. >0x40 JTAG> >0x40 JTAG> >0x30 JTAG> >0x40 JTAG> >0x50 JTAG> >0x40 JTAG>ETM fitted. >0x40 JTAG> >0x40 JTAG> >0x30 JTAG> >0x40 JTAG> >0x50 JTAG> >0x40 JTAG> >0x40 JTAG> >0x40 JTAG> >0x30 JTAG> >0x40 JTAG>
 >0x50 JTAG> >0x40 JTAG>FPUnit: 6 code (BP) slots and 2 literal slots >0x40 JTAG> >0x40 JTAG> >0x30 JTAG> >0x40 JTAG> >0x50 JTAG> >0x40 JTAG> >0x40 JTAG> >0x40 JTAG> >0x30 JTAG> >0x40 JTAG> >0x50 JTAG> >0x40 JTAG> -- CPU_WriteMem(4 bytes @ 0xE000EDF0) -- CPU_WriteMem(4 bytes @ 0xE000EDFC) -- CPU_WriteMem(4 bytes @ 0xE000ED0C) -- CPU_ReadMem(4 bytes @ 0xE000EDF0) -- CPU_ReadMem(4 bytes @ 0xE000EDF0) -- CPU_WriteMem(4 bytes @ 0xE000EDF0) -- CPU_WriteMem(4 bytes @ 0xE000EDFC) -- CPU is running
 -- CPU_ReadMem(4 bytes @ 0xE000EDF0) >0x90 JTAG> >0x40 JTAG> >0x30 JTAG> >0x40 JTAG> >0x50 JTAG> >0x40 JTAG> -- CPU_WriteMem(4 bytes @ 0xE000EDFC) -- CPU_WriteMem(4 bytes @ 0xE0001028) -- CPU_WriteMem(4 bytes @ 0xE0001038) -- CPU_WriteMem(4 bytes @ 0xE0001048) -- CPU_WriteMem(4 bytes @ 0xE0001058) -- CPU_WriteMem(4 bytes @ 0xE0002000) (0095ms, 0685ms total)
T1F9C 000:848 JLINK_ReadReg(R15)  returns 0x08004B20 (0000ms, 0685ms total)
T1F9C 000:848 JLINK_ReadReg(XPSR)  returns 0x01000000 (0000ms, 0685ms total)
T1F9C 000:850 JLINK_ReadMem (0x2000000C, 0x0002 Bytes, ...) -- CPU_ReadMem(64 bytes @ 0x20000000) -- Updating C cache (64 bytes @ 0x20000000) -- Read from C cache (2 bytes @ 0x2000000C) -- Data:  00 00  returns 0x00 (0001ms, 0686ms total)
T1F9C 000:851 JLINK_ReadMem (0x00000000, 0x00FD Bytes, ...)
                JLINK_ReadMemHW(0x00000000, 0x0004 Bytes, ...) -- CPU_ReadMem(4 bytes @ 0x00000000) -- Data:  C0 0A 00 20  returns 0x00 (0001ms, 0001ms total)
                JLINK_ReadMemHW(0x08000000, 0x0004 Bytes, ...) -- CPU_ReadMem(4 bytes @ 0x08000000) -- Data:  C0 0A 00 20  returns 0x00 (0001ms, 0002ms total)
                JLINK_WriteMemHW(0x00000000, 0x0004 Bytes, ...) -- Data:  01 00 01 00 -- CPU_WriteMem(4 bytes @ 0x00000000)  returns 0x04 (0001ms, 0003ms total)
                JLINK_ReadMemHW(0x00000000, 0x0004 Bytes, ...) -- CPU_ReadMem(4 bytes @ 0x00000000) -- Data:  C0 0A 00 20  returns 0x00 (0000ms, 0004ms total)
               -- MA0 is in flash -- Unmirror addr 0x00000000 -- CPU_ReadMem(256 bytes @ 0x08000000) -- Updating C cache (256 bytes @ 0x08000000) -- Read from C cache (253 bytes @ 0x08000000) -- Data:  C0 0A 00 20 21 4B 00 08 E5 03 00 08 E7 03 00 08 ...  returns 0x00 (0007ms, 0693ms total)
T1F9C 000:860 JLINK_ReadMemU32(0xE0001004, 0x0001 Items, ...) -- CPU_ReadMem(4 bytes @ 0xE0001004) -- Data:  2C 0C 00 00  returns 0x01 (0001ms, 0694ms total)
T1F9C 000:861 JLINK_ReadMem (0x08004B20, 0x003C Bytes, ...) -- CPU_ReadMem(128 bytes @ 0x08004B00) -- Updating C cache (128 bytes @ 0x08004B00) -- Read from C cache (60 bytes @ 0x08004B20) -- Data:  09 48 80 47 09 48 00 47 FE E7 FE E7 FE E7 FE E7 ...  returns 0x00 (0003ms, 0697ms total)
T1760 003:757 JLINK_SetBPEx(Addr = 0x0800021A, Type = 0xFFFFFFF2)  returns 0x00000001 (0000ms, 0697ms total)
T1760 003:757 JLINK_SetBPEx(Addr = 0x080023FE, Type = 0xFFFFFFF2)  returns 0x00000002 (0000ms, 0697ms total)
T1760 003:757 JLINK_SetBPEx(Addr = 0x080023B4, Type = 0xFFFFFFF2)  returns 0x00000003 (0000ms, 0697ms total)
T1760 003:757 JLINK_SetBPEx(Addr = 0x08001692, Type = 0xFFFFFFF2)  returns 0x00000004 (0001ms, 0698ms total)
T1760 003:758 JLINK_SetBPEx(Addr = 0x0800168A, Type = 0xFFFFFFF2)  returns 0x00000005 (0000ms, 0698ms total)
T1760 003:758 JLINK_Go() -- CPU_WriteMem(4 bytes @ 0xE0002008) -- CPU_WriteMem(4 bytes @ 0xE000200C) -- CPU_WriteMem(4 bytes @ 0xE0002010) -- CPU_WriteMem(4 bytes @ 0xE0002014) -- CPU_WriteMem(4 bytes @ 0xE0002018) -- CPU_WriteMem(4 bytes @ 0xE000201C) -- Invalidate MA0 status (0006ms, 0704ms total)
T1760 003:864 JLINK_IsHalted()  returns TRUE (0010ms, 0714ms total)
T1760 003:874 JLINK_Halt()  returns 0x00 (0000ms, 0704ms total)
T1760 003:874 JLINK_IsHalted()  returns TRUE (0000ms, 0704ms total)
T1760 003:874 JLINK_IsHalted()  returns TRUE (0000ms, 0704ms total)
T1760 003:874 JLINK_IsHalted()  returns TRUE (0000ms, 0704ms total)
T1760 003:874 JLINK_ReadReg(R15)  returns 0x0800021A (0000ms, 0704ms total)
T1760 003:874 JLINK_ReadReg(XPSR)  returns 0x21000000 (0000ms, 0704ms total)
T1760 003:874 JLINK_ClrBPEx(BPHandle = 0x00000001)  returns 0x00 (0000ms, 0704ms total)
T1760 003:874 JLINK_ClrBPEx(BPHandle = 0x00000002)  returns 0x00 (0000ms, 0704ms total)
T1760 003:874 JLINK_ClrBPEx(BPHandle = 0x00000003)  returns 0x00 (0000ms, 0704ms total)
T1760 003:874 JLINK_ClrBPEx(BPHandle = 0x00000004)  returns 0x00 (0000ms, 0704ms total)
T1760 003:874 JLINK_ClrBPEx(BPHandle = 0x00000005)  returns 0x00 (0001ms, 0705ms total)
T1760 003:875 JLINK_ReadMemU32(0xE000ED30, 0x0001 Items, ...) -- CPU_ReadMem(4 bytes @ 0xE000ED30) -- Data:  03 00 00 00  returns 0x01 (0001ms, 0706ms total)
T1760 003:876 JLINK_ReadMemU32(0xE0001028, 0x0001 Items, ...) -- CPU_ReadMem(4 bytes @ 0xE0001028) -- Data:  00 00 00 00  returns 0x01 (0001ms, 0707ms total)
T1760 003:878 JLINK_ReadMemU32(0xE0001038, 0x0001 Items, ...) -- CPU_ReadMem(4 bytes @ 0xE0001038) -- Data:  00 02 00 00  returns 0x01 (0001ms, 0708ms total)
T1760 003:879 JLINK_ReadMemU32(0xE0001048, 0x0001 Items, ...) -- CPU_ReadMem(4 bytes @ 0xE0001048) -- Data:  00 00 00 00  returns 0x01 (0001ms, 0709ms total)
T1760 003:880 JLINK_ReadMemU32(0xE0001058, 0x0001 Items, ...) -- CPU_ReadMem(4 bytes @ 0xE0001058) -- Data:  00 00 00 00  returns 0x01 (0001ms, 0710ms total)
T1760 003:881 JLINK_ReadReg(R0)  returns 0x200004C0 (0000ms, 0710ms total)
T1760 003:881 JLINK_ReadReg(R1)  returns 0x200006C0 (0000ms, 0710ms total)
T1760 003:881 JLINK_ReadReg(R2)  returns 0x200006C0 (0000ms, 0710ms total)
T1760 003:881 JLINK_ReadReg(R3)  returns 0x200006C0 (0000ms, 0710ms total)
T1760 003:881 JLINK_ReadReg(R4)  returns 0x00000000 (0000ms, 0710ms total)
T1760 003:881 JLINK_ReadReg(R5)  returns 0x20000460 (0000ms, 0710ms total)
T1760 003:881 JLINK_ReadReg(R6)  returns 0x00000000 (0000ms, 0710ms total)
T1760 003:881 JLINK_ReadReg(R7)  returns 0x00000000 (0000ms, 0710ms total)
T1760 003:881 JLINK_ReadReg(R8)  returns 0x00000000 (0000ms, 0710ms total)
T1760 003:882 JLINK_ReadReg(R9)  returns 0x20000160 (0000ms, 0710ms total)
T1760 003:882 JLINK_ReadReg(R10)  returns 0x08009CE8 (0000ms, 0710ms total)
T1760 003:882 JLINK_ReadReg(R11)  returns 0x00000000 (0000ms, 0710ms total)
T1760 003:882 JLINK_ReadReg(R12)  returns 0x200004A0 (0000ms, 0710ms total)
T1760 003:882 JLINK_ReadReg(R13)  returns 0x20000AC0 (0000ms, 0710ms total)
T1760 003:882 JLINK_ReadReg(R14)  returns 0x080001CB (0000ms, 0710ms total)
T1760 003:882 JLINK_ReadReg(R15)  returns 0x0800021A (0000ms, 0710ms total)
T1760 003:882 JLINK_ReadReg(XPSR)  returns 0x21000000 (0000ms, 0710ms total)
T1760 003:882 JLINK_ReadReg(MSP)  returns 0x20000AC0 (0000ms, 0710ms total)
T1760 003:882 JLINK_ReadReg(PSP)  returns 0x20000800 (0000ms, 0710ms total)
T1760 003:882 JLINK_ReadReg(CFBP)  returns 0x00000000 (0000ms, 0710ms total)
T1F9C 003:883 JLINK_ReadMemU32(0xE0001004, 0x0001 Items, ...) -- CPU_ReadMem(4 bytes @ 0xE0001004) -- Data:  3A 57 00 00  returns 0x01 (0001ms, 0711ms total)
T1F9C 003:887 JLINK_ReadMem (0x2000000C, 0x0002 Bytes, ...) -- CPU_ReadMem(64 bytes @ 0x20000000) -- Updating C cache (64 bytes @ 0x20000000) -- Read from C cache (2 bytes @ 0x2000000C) -- Data:  00 00  returns 0x00 (0001ms, 0712ms total)
T1F9C 003:888 JLINK_ReadMem (0x00000000, 0x00FD Bytes, ...)
                JLINK_ReadMemHW(0x00000000, 0x0004 Bytes, ...) -- CPU_ReadMem(4 bytes @ 0x00000000) -- Data:  C0 0A 00 20  returns 0x00 (0001ms, 0001ms total)
                JLINK_ReadMemHW(0x08000000, 0x0004 Bytes, ...) -- CPU_ReadMem(4 bytes @ 0x08000000) -- Data:  C0 0A 00 20  returns 0x00 (0001ms, 0002ms total)
                JLINK_WriteMemHW(0x00000000, 0x0004 Bytes, ...) -- Data:  01 00 01 00 -- CPU_WriteMem(4 bytes @ 0x00000000)  returns 0x04 (0001ms, 0003ms total)
                JLINK_ReadMemHW(0x00000000, 0x0004 Bytes, ...) -- CPU_ReadMem(4 bytes @ 0x00000000) -- Data:  C0 0A 00 20  returns 0x00 (0001ms, 0004ms total)
               -- MA0 is in flash -- Unmirror addr 0x00000000 -- CPU_ReadMem(256 bytes @ 0x08000000) -- Updating C cache (256 bytes @ 0x08000000) -- Read from C cache (253 bytes @ 0x08000000) -- Data:  C0 0A 00 20 21 4B 00 08 E5 03 00 08 E7 03 00 08 ...  returns 0x00 (0007ms, 0719ms total)
T1F9C 003:903 JLINK_ReadMem (0x0800021A, 0x0002 Bytes, ...) -- CPU_ReadMem(64 bytes @ 0x08000200) -- Updating C cache (64 bytes @ 0x08000200) -- Read from C cache (2 bytes @ 0x0800021A) -- Data:  08 B5  returns 0x00 (0002ms, 0721ms total)
T1F9C 003:905 JLINK_ReadMem (0x0800021C, 0x003C Bytes, ...) -- CPU_ReadMem(64 bytes @ 0x08000240) -- Updating C cache (64 bytes @ 0x08000240) -- Read from C cache (60 bytes @ 0x0800021C) -- Data:  00 F0 D4 F9 00 F0 34 FA 00 F0 D8 FA 00 F0 0A FB ...  returns 0x00 (0002ms, 0723ms total)
T1760 010:320 JLINK_Step() -- Read from C cache (2 bytes @ 0x0800021A) -- CPU_WriteMem(8 bytes @ 0x20000AB8) -- Simulated  returns 0x00 (0003ms, 0726ms total)
T1760 010:323 JLINK_ReadReg(R15)  returns 0x0800021C (0000ms, 0726ms total)
T1760 010:323 JLINK_ReadReg(XPSR)  returns 0x21000000 (0000ms, 0726ms total)
T1760 010:323 JLINK_ReadReg(R0)  returns 0x200004C0 (0000ms, 0726ms total)
T1760 010:323 JLINK_ReadReg(R1)  returns 0x200006C0 (0000ms, 0726ms total)
T1760 010:323 JLINK_ReadReg(R2)  returns 0x200006C0 (0000ms, 0726ms total)
T1760 010:323 JLINK_ReadReg(R3)  returns 0x200006C0 (0000ms, 0726ms total)
T1760 010:323 JLINK_ReadReg(R4)  returns 0x00000000 (0000ms, 0726ms total)
T1760 010:324 JLINK_ReadReg(R5)  returns 0x20000460 (0000ms, 0727ms total)
T1760 010:324 JLINK_ReadReg(R6)  returns 0x00000000 (0000ms, 0727ms total)
T1760 010:324 JLINK_ReadReg(R7)  returns 0x00000000 (0000ms, 0727ms total)
T1760 010:324 JLINK_ReadReg(R8)  returns 0x00000000 (0000ms, 0727ms total)
T1760 010:324 JLINK_ReadReg(R9)  returns 0x20000160 (0000ms, 0727ms total)
T1760 010:324 JLINK_ReadReg(R10)  returns 0x08009CE8 (0000ms, 0727ms total)
T1760 010:324 JLINK_ReadReg(R11)  returns 0x00000000 (0000ms, 0727ms total)
T1760 010:324 JLINK_ReadReg(R12)  returns 0x200004A0 (0000ms, 0727ms total)
T1760 010:324 JLINK_ReadReg(R13)  returns 0x20000AB8 (0000ms, 0727ms total)
T1760 010:324 JLINK_ReadReg(R14)  returns 0x080001CB (0000ms, 0727ms total)
T1760 010:324 JLINK_ReadReg(R15)  returns 0x0800021C (0000ms, 0727ms total)
T1760 010:324 JLINK_ReadReg(XPSR)  returns 0x21000000 (0000ms, 0727ms total)
T1760 010:324 JLINK_ReadReg(MSP)  returns 0x20000AB8 (0000ms, 0727ms total)
T1760 010:324 JLINK_ReadReg(PSP)  returns 0x20000800 (0000ms, 0727ms total)
T1760 010:324 JLINK_ReadReg(CFBP)  returns 0x00000000 (0000ms, 0727ms total)
T1F9C 010:331 JLINK_ReadMemU32(0xE0001004, 0x0001 Items, ...) -- Data:  3A 57 00 00  returns 0x01 (0001ms, 0728ms total)
T1F9C 010:335 JLINK_ReadMem (0x2000000C, 0x0002 Bytes, ...) -- Read from C cache (2 bytes @ 0x2000000C) -- Data:  00 00  returns 0x00 (0000ms, 0728ms total)
T1F9C 010:335 JLINK_ReadMem (0x00000000, 0x00FD Bytes, ...) -- Unmirror addr 0x00000000 -- Read from C cache (253 bytes @ 0x08000000) -- Data:  C0 0A 00 20 21 4B 00 08 E5 03 00 08 E7 03 00 08 ...  returns 0x00 (0000ms, 0728ms total)
T1F9C 010:349 JLINK_ReadMem (0x0800021C, 0x003C Bytes, ...) -- Read from C cache (60 bytes @ 0x0800021C) -- Data:  00 F0 D4 F9 00 F0 34 FA 00 F0 D8 FA 00 F0 0A FB ...  returns 0x00 (0001ms, 0729ms total)
T1760 010:984 JLINK_Step() -- Read from C cache (2 bytes @ 0x0800021C) -- Read from C cache (2 bytes @ 0x0800021E) -- Simulated  returns 0x00 (0001ms, 0730ms total)
T1760 010:985 JLINK_ReadReg(R15)  returns 0x080005C8 (0000ms, 0730ms total)
T1760 010:985 JLINK_ReadReg(XPSR)  returns 0x21000000 (0000ms, 0730ms total)
T1760 010:985 JLINK_ReadReg(R0)  returns 0x200004C0 (0000ms, 0730ms total)
T1760 010:985 JLINK_ReadReg(R1)  returns 0x200006C0 (0000ms, 0730ms total)
T1760 010:985 JLINK_ReadReg(R2)  returns 0x200006C0 (0000ms, 0730ms total)
T1760 010:985 JLINK_ReadReg(R3)  returns 0x200006C0 (0000ms, 0730ms total)
T1760 010:985 JLINK_ReadReg(R4)  returns 0x00000000 (0000ms, 0730ms total)
T1760 010:985 JLINK_ReadReg(R5)  returns 0x20000460 (0001ms, 0731ms total)
T1760 010:986 JLINK_ReadReg(R6)  returns 0x00000000 (0000ms, 0731ms total)
T1760 010:986 JLINK_ReadReg(R7)  returns 0x00000000 (0000ms, 0731ms total)
T1760 010:986 JLINK_ReadReg(R8)  returns 0x00000000 (0000ms, 0731ms total)
T1760 010:986 JLINK_ReadReg(R9)  returns 0x20000160 (0000ms, 0731ms total)
T1760 010:986 JLINK_ReadReg(R10)  returns 0x08009CE8 (0000ms, 0731ms total)
T1760 010:986 JLINK_ReadReg(R11)  returns 0x00000000 (0000ms, 0731ms total)
T1760 010:986 JLINK_ReadReg(R12)  returns 0x200004A0 (0000ms, 0731ms total)
T1760 010:986 JLINK_ReadReg(R13)  returns 0x20000AB8 (0000ms, 0731ms total)
T1760 010:986 JLINK_ReadReg(R14)  returns 0x08000221 (0000ms, 0731ms total)
T1760 010:986 JLINK_ReadReg(R15)  returns 0x080005C8 (0000ms, 0731ms total)
T1760 010:986 JLINK_ReadReg(XPSR)  returns 0x21000000 (0000ms, 0731ms total)
T1760 010:986 JLINK_ReadReg(MSP)  returns 0x20000AB8 (0000ms, 0731ms total)
T1760 010:986 JLINK_ReadReg(PSP)  returns 0x20000800 (0000ms, 0731ms total)
T1760 010:986 JLINK_ReadReg(CFBP)  returns 0x00000000 (0000ms, 0731ms total)
T1F9C 010:995 JLINK_ReadMemU32(0xE0001004, 0x0001 Items, ...) -- Data:  3A 57 00 00  returns 0x01 (0001ms, 0732ms total)
T1F9C 010:996 JLINK_ReadMem (0x2000000C, 0x0002 Bytes, ...) -- Read from C cache (2 bytes @ 0x2000000C) -- Data:  00 00  returns 0x00 (0000ms, 0732ms total)
T1F9C 010:996 JLINK_ReadMem (0x00000000, 0x00FD Bytes, ...) -- Unmirror addr 0x00000000 -- Read from C cache (253 bytes @ 0x08000000) -- Data:  C0 0A 00 20 21 4B 00 08 E5 03 00 08 E7 03 00 08 ...  returns 0x00 (0001ms, 0733ms total)
T1F9C 011:335 JLINK_ReadMem (0x0800021C, 0x003C Bytes, ...) -- Read from C cache (60 bytes @ 0x0800021C) -- Data:  00 F0 D4 F9 00 F0 34 FA 00 F0 D8 FA 00 F0 0A FB ...  returns 0x00 (0001ms, 0734ms total)
T1760 013:175 JLINK_ReadMem (0x080005C8, 0x003C Bytes, ...) -- CPU_ReadMem(128 bytes @ 0x080005C0) -- Updating C cache (128 bytes @ 0x080005C0) -- Read from C cache (60 bytes @ 0x080005C8) -- Data:  10 B5 6F F0 04 00 04 F0 17 FB 2A 48 00 68 2A 49 ...  returns 0x00 (0007ms, 0741ms total)
T1760 013:182 JLINK_Step() -- Read from C cache (2 bytes @ 0x080005C8) -- CPU_WriteMem(8 bytes @ 0x20000AB0) -- Simulated  returns 0x00 (0002ms, 0743ms total)
T1760 013:184 JLINK_ReadReg(R15)  returns 0x080005CA (0000ms, 0743ms total)
T1760 013:184 JLINK_ReadReg(XPSR)  returns 0x21000000 (0000ms, 0743ms total)
T1760 013:184 JLINK_ReadReg(R0)  returns 0x200004C0 (0000ms, 0743ms total)
T1760 013:184 JLINK_ReadReg(R1)  returns 0x200006C0 (0000ms, 0743ms total)
T1760 013:184 JLINK_ReadReg(R2)  returns 0x200006C0 (0000ms, 0743ms total)
T1760 013:184 JLINK_ReadReg(R3)  returns 0x200006C0 (0000ms, 0743ms total)
T1760 013:184 JLINK_ReadReg(R4)  returns 0x00000000 (0000ms, 0743ms total)
T1760 013:184 JLINK_ReadReg(R5)  returns 0x20000460 (0000ms, 0743ms total)
T1760 013:184 JLINK_ReadReg(R6)  returns 0x00000000 (0000ms, 0743ms total)
T1760 013:184 JLINK_ReadReg(R7)  returns 0x00000000 (0000ms, 0743ms total)
T1760 013:185 JLINK_ReadReg(R8)  returns 0x00000000 (0000ms, 0744ms total)
T1760 013:185 JLINK_ReadReg(R9)  returns 0x20000160 (0000ms, 0744ms total)
T1760 013:185 JLINK_ReadReg(R10)  returns 0x08009CE8 (0000ms, 0744ms total)
T1760 013:185 JLINK_ReadReg(R11)  returns 0x00000000 (0000ms, 0744ms total)
T1760 013:185 JLINK_ReadReg(R12)  returns 0x200004A0 (0000ms, 0744ms total)
T1760 013:185 JLINK_ReadReg(R13)  returns 0x20000AB0 (0000ms, 0744ms total)
T1760 013:185 JLINK_ReadReg(R14)  returns 0x08000221 (0000ms, 0744ms total)
T1760 013:185 JLINK_ReadReg(R15)  returns 0x080005CA (0000ms, 0744ms total)
T1760 013:185 JLINK_ReadReg(XPSR)  returns 0x21000000 (0000ms, 0744ms total)
T1760 013:185 JLINK_ReadReg(MSP)  returns 0x20000AB0 (0000ms, 0744ms total)
T1760 013:185 JLINK_ReadReg(PSP)  returns 0x20000800 (0000ms, 0744ms total)
T1760 013:185 JLINK_ReadReg(CFBP)  returns 0x00000000 (0000ms, 0744ms total)
T1F9C 013:188 JLINK_ReadMemU32(0xE0001004, 0x0001 Items, ...) -- Data:  3A 57 00 00  returns 0x01 (0000ms, 0744ms total)
T1F9C 013:189 JLINK_ReadMem (0x2000000C, 0x0002 Bytes, ...) -- Read from C cache (2 bytes @ 0x2000000C) -- Data:  00 00  returns 0x00 (0000ms, 0744ms total)
T1F9C 013:189 JLINK_ReadMem (0x00000000, 0x00FD Bytes, ...) -- Unmirror addr 0x00000000 -- Read from C cache (253 bytes @ 0x08000000) -- Data:  C0 0A 00 20 21 4B 00 08 E5 03 00 08 E7 03 00 08 ...  returns 0x00 (0000ms, 0744ms total)
T1F9C 013:203 JLINK_ReadMem (0x080005CA, 0x0002 Bytes, ...) -- Read from C cache (2 bytes @ 0x080005CA) -- Data:  6F F0  returns 0x00 (0000ms, 0744ms total)
T1F9C 013:203 JLINK_ReadMem (0x080005CC, 0x003C Bytes, ...) -- Read from C cache (60 bytes @ 0x080005CC) -- Data:  04 00 04 F0 17 FB 2A 48 00 68 2A 49 B0 FB F1 F0 ...  returns 0x00 (0000ms, 0744ms total)
T1760 013:837 JLINK_Step() -- Read from C cache (2 bytes @ 0x080005CA) -- Read from C cache (2 bytes @ 0x080005CC) -- Simulated  returns 0x00 (0001ms, 0746ms total)
T1760 013:838 JLINK_ReadReg(R15)  returns 0x080005CE (0000ms, 0746ms total)
T1760 013:838 JLINK_ReadReg(XPSR)  returns 0x21000000 (0000ms, 0746ms total)
T1760 013:838 JLINK_SetBPEx(Addr = 0x080005D2, Type = 0xFFFFFFF2)  returns 0x00000006 (0000ms, 0746ms total)
T1760 013:838 JLINK_SetBPEx(Addr = 0x080023FE, Type = 0xFFFFFFF2)  returns 0x00000007 (0000ms, 0746ms total)
T1760 013:838 JLINK_SetBPEx(Addr = 0x080023B4, Type = 0xFFFFFFF2)  returns 0x00000008 (0000ms, 0746ms total)
T1760 013:838 JLINK_SetBPEx(Addr = 0x08001692, Type = 0xFFFFFFF2)  returns 0x00000009 (0000ms, 0746ms total)
T1760 013:838 JLINK_SetBPEx(Addr = 0x0800168A, Type = 0xFFFFFFF2)  returns 0x0000000A (0000ms, 0746ms total)
T1760 013:838 JLINK_Go() -- CPU_WriteMem(4 bytes @ 0xE0002008) -- CPU_WriteMem(4 bytes @ 0xE000200C) -- CPU_WriteMem(4 bytes @ 0xE0002010) -- CPU_WriteMem(4 bytes @ 0xE0002014) -- CPU_WriteMem(4 bytes @ 0xE0002018) -- CPU_WriteMem(4 bytes @ 0xE000201C) -- Invalidate MA0 status (0013ms, 0759ms total)
T1760 013:951 JLINK_IsHalted()  returns TRUE (0007ms, 0766ms total)
T1760 013:958 JLINK_Halt()  returns 0x00 (0000ms, 0759ms total)
T1760 013:958 JLINK_IsHalted()  returns TRUE (0000ms, 0759ms total)
T1760 013:958 JLINK_IsHalted()  returns TRUE (0000ms, 0759ms total)
T1760 013:958 JLINK_IsHalted()  returns TRUE (0000ms, 0759ms total)
T1760 013:958 JLINK_ReadReg(R15)  returns 0x080005D2 (0000ms, 0759ms total)
T1760 013:958 JLINK_ReadReg(XPSR)  returns 0xA1000000 (0000ms, 0759ms total)
T1760 013:958 JLINK_ClrBPEx(BPHandle = 0x00000006)  returns 0x00 (0000ms, 0759ms total)
T1760 013:958 JLINK_ClrBPEx(BPHandle = 0x00000007)  returns 0x00 (0000ms, 0759ms total)
T1760 013:958 JLINK_ClrBPEx(BPHandle = 0x00000008)  returns 0x00 (0000ms, 0759ms total)
T1760 013:958 JLINK_ClrBPEx(BPHandle = 0x00000009)  returns 0x00 (0000ms, 0759ms total)
T1760 013:958 JLINK_ClrBPEx(BPHandle = 0x0000000A)  returns 0x00 (0000ms, 0759ms total)
T1760 013:958 JLINK_ReadMemU32(0xE000ED30, 0x0001 Items, ...) -- CPU_ReadMem(4 bytes @ 0xE000ED30) -- Data:  03 00 00 00  returns 0x01 (0001ms, 0760ms total)
T1760 013:960 JLINK_ReadMemU32(0xE0001028, 0x0001 Items, ...) -- CPU_ReadMem(4 bytes @ 0xE0001028) -- Data:  00 00 00 00  returns 0x01 (0001ms, 0761ms total)
T1760 013:961 JLINK_ReadMemU32(0xE0001038, 0x0001 Items, ...) -- CPU_ReadMem(4 bytes @ 0xE0001038) -- Data:  00 02 00 00  returns 0x01 (0001ms, 0762ms total)
T1760 013:962 JLINK_ReadMemU32(0xE0001048, 0x0001 Items, ...) -- CPU_ReadMem(4 bytes @ 0xE0001048) -- Data:  00 00 00 00  returns 0x01 (0001ms, 0763ms total)
T1760 013:963 JLINK_ReadMemU32(0xE0001058, 0x0001 Items, ...) -- CPU_ReadMem(4 bytes @ 0xE0001058) -- Data:  00 00 00 00  returns 0x01 (0001ms, 0764ms total)
T1760 013:964 JLINK_ReadReg(R0)  returns 0xFFFFFFFB (0000ms, 0764ms total)
T1760 013:964 JLINK_ReadReg(R1)  returns 0x00000000 (0000ms, 0764ms total)
T1760 013:964 JLINK_ReadReg(R2)  returns 0xE000E000 (0000ms, 0764ms total)
T1760 013:964 JLINK_ReadReg(R3)  returns 0x200006C0 (0000ms, 0764ms total)
T1760 013:964 JLINK_ReadReg(R4)  returns 0x00000000 (0000ms, 0764ms total)
T1760 013:964 JLINK_ReadReg(R5)  returns 0x20000460 (0000ms, 0764ms total)
T1760 013:964 JLINK_ReadReg(R6)  returns 0x00000000 (0000ms, 0764ms total)
T1760 013:964 JLINK_ReadReg(R7)  returns 0x00000000 (0001ms, 0765ms total)
T1760 013:965 JLINK_ReadReg(R8)  returns 0x00000000 (0000ms, 0765ms total)
T1760 013:965 JLINK_ReadReg(R9)  returns 0x20000160 (0000ms, 0765ms total)
T1760 013:965 JLINK_ReadReg(R10)  returns 0x08009CE8 (0000ms, 0765ms total)
T1760 013:965 JLINK_ReadReg(R11)  returns 0x00000000 (0000ms, 0765ms total)
T1760 013:965 JLINK_ReadReg(R12)  returns 0x200004A0 (0000ms, 0765ms total)
T1760 013:965 JLINK_ReadReg(R13)  returns 0x20000AB0 (0000ms, 0765ms total)
T1760 013:965 JLINK_ReadReg(R14)  returns 0x080005D3 (0000ms, 0765ms total)
T1760 013:965 JLINK_ReadReg(R15)  returns 0x080005D2 (0000ms, 0765ms total)
T1760 013:965 JLINK_ReadReg(XPSR)  returns 0xA1000000 (0000ms, 0765ms total)
T1760 013:965 JLINK_ReadReg(MSP)  returns 0x20000AB0 (0000ms, 0765ms total)
T1760 013:965 JLINK_ReadReg(PSP)  returns 0x20000800 (0000ms, 0765ms total)
T1760 013:965 JLINK_ReadReg(CFBP)  returns 0x00000000 (0000ms, 0765ms total)
T1F9C 013:965 JLINK_ReadMemU32(0xE0001004, 0x0001 Items, ...) -- CPU_ReadMem(4 bytes @ 0xE0001004) -- Data:  53 57 00 00  returns 0x01 (0002ms, 0767ms total)
T1F9C 013:969 JLINK_ReadMem (0x2000000C, 0x0002 Bytes, ...) -- CPU_ReadMem(64 bytes @ 0x20000000) -- Updating C cache (64 bytes @ 0x20000000) -- Read from C cache (2 bytes @ 0x2000000C) -- Data:  00 00  returns 0x00 (0002ms, 0769ms total)
T1F9C 013:971 JLINK_ReadMem (0x00000000, 0x00FD Bytes, ...)
                JLINK_ReadMemHW(0x00000000, 0x0004 Bytes, ...) -- CPU_ReadMem(4 bytes @ 0x00000000) -- Data:  C0 0A 00 20  returns 0x00 (0001ms, 0001ms total)
                JLINK_ReadMemHW(0x08000000, 0x0004 Bytes, ...) -- CPU_ReadMem(4 bytes @ 0x08000000) -- Data:  C0 0A 00 20  returns 0x00 (0001ms, 0002ms total)
                JLINK_WriteMemHW(0x00000000, 0x0004 Bytes, ...) -- Data:  01 00 01 00 -- CPU_WriteMem(4 bytes @ 0x00000000)  returns 0x04 (0001ms, 0003ms total)
                JLINK_ReadMemHW(0x00000000, 0x0004 Bytes, ...) -- CPU_ReadMem(4 bytes @ 0x00000000) -- Data:  C0 0A 00 20  returns 0x00 (0001ms, 0004ms total)
               -- MA0 is in flash -- Unmirror addr 0x00000000 -- CPU_ReadMem(256 bytes @ 0x08000000) -- Updating C cache (256 bytes @ 0x08000000) -- Read from C cache (253 bytes @ 0x08000000) -- Data:  C0 0A 00 20 21 4B 00 08 E5 03 00 08 E7 03 00 08 ...  returns 0x00 (0007ms, 0776ms total)
T1760 014:177 JLINK_ReadMem (0x080005D2, 0x0002 Bytes, ...) -- CPU_ReadMem(64 bytes @ 0x080005C0) -- Updating C cache (64 bytes @ 0x080005C0) -- Read from C cache (2 bytes @ 0x080005D2) -- Data:  2A 48  returns 0x00 (0002ms, 0778ms total)
T1760 014:179 JLINK_ReadMem (0x080005D4, 0x003C Bytes, ...) -- CPU_ReadMem(64 bytes @ 0x08000600) -- Updating C cache (64 bytes @ 0x08000600) -- Read from C cache (60 bytes @ 0x080005D4) -- Data:  00 68 2A 49 B0 FB F1 F0 29 49 08 70 08 46 00 78 ...  returns 0x00 (0002ms, 0780ms total)
T1760 014:181 JLINK_Step() -- Read from C cache (2 bytes @ 0x080005D2) -- CPU_ReadMem(64 bytes @ 0x08000640) -- Updating C cache (64 bytes @ 0x08000640) -- Read from C cache (4 bytes @ 0x0800067C) -- Simulated  returns 0x00 (0001ms, 0781ms total)
T1760 014:182 JLINK_ReadReg(R15)  returns 0x080005D4 (0000ms, 0781ms total)
T1760 014:182 JLINK_ReadReg(XPSR)  returns 0xA1000000 (0000ms, 0781ms total)
T1760 014:182 JLINK_Step() -- Read from C cache (2 bytes @ 0x080005D4) -- Read from C cache (4 bytes @ 0x2000001C) -- Simulated  returns 0x00 (0001ms, 0782ms total)
T1760 014:183 JLINK_ReadReg(R15)  returns 0x080005D6 (0000ms, 0782ms total)
T1760 014:183 JLINK_ReadReg(XPSR)  returns 0xA1000000 (0000ms, 0782ms total)
T1760 014:183 JLINK_Step() -- Read from C cache (2 bytes @ 0x080005D6) -- CPU_ReadMem(64 bytes @ 0x08000680) -- Updating C cache (64 bytes @ 0x08000680) -- Read from C cache (4 bytes @ 0x08000680) -- Simulated  returns 0x00 (0001ms, 0783ms total)
T1760 014:184 JLINK_ReadReg(R15)  returns 0x080005D8 (0000ms, 0783ms total)
T1760 014:184 JLINK_ReadReg(XPSR)  returns 0xA1000000 (0000ms, 0783ms total)
T1760 014:184 JLINK_Step() -- Read from C cache (2 bytes @ 0x080005D8) -- Read from C cache (2 bytes @ 0x080005DA) -- Not simulated -- CPU_WriteMem(4 bytes @ 0xE0002008) -- CPU_WriteMem(4 bytes @ 0xE000200C) -- CPU_WriteMem(4 bytes @ 0xE0002010) -- CPU_WriteMem(4 bytes @ 0xE0002014) -- CPU_WriteMem(4 bytes @ 0xE0002018) -- CPU_WriteMem(4 bytes @ 0xE000201C) -- Invalidate MA0 status  returns 0x00 (0016ms, 0799ms total)
T1760 014:200 JLINK_ReadReg(R15)  returns 0x080005DC (0000ms, 0799ms total)
T1760 014:200 JLINK_ReadReg(XPSR)  returns 0xA1000000 (0000ms, 0799ms total)
T1760 014:200 JLINK_Step() -- CPU_ReadMem(64 bytes @ 0x080005C0) -- Updating C cache (64 bytes @ 0x080005C0) -- Read from C cache (2 bytes @ 0x080005DC) -- CPU_ReadMem(64 bytes @ 0x08000680) -- Updating C cache (64 bytes @ 0x08000680) -- Read from C cache (4 bytes @ 0x08000684) -- Simulated  returns 0x00 (0004ms, 0803ms total)
T1760 014:204 JLINK_ReadReg(R15)  returns 0x080005DE (0000ms, 0803ms total)
T1760 014:204 JLINK_ReadReg(XPSR)  returns 0xA1000000 (0000ms, 0803ms total)
T1760 014:204 JLINK_Step() -- Read from C cache (2 bytes @ 0x080005DE) -- CPU_WriteMem(1 bytes @ 0x20000030) -- Simulated  returns 0x00 (0001ms, 0804ms total)
T1760 014:205 JLINK_ReadReg(R15)  returns 0x080005E0 (0000ms, 0804ms total)
T1760 014:205 JLINK_ReadReg(XPSR)  returns 0xA1000000 (0000ms, 0804ms total)
T1760 014:205 JLINK_ReadReg(R0)  returns 0x00000009 (0000ms, 0804ms total)
T1760 014:205 JLINK_ReadReg(R1)  returns 0x20000030 (0000ms, 0804ms total)
T1760 014:205 JLINK_ReadReg(R2)  returns 0xE000E000 (0001ms, 0805ms total)
T1760 014:206 JLINK_ReadReg(R3)  returns 0x200006C0 (0000ms, 0805ms total)
T1760 014:206 JLINK_ReadReg(R4)  returns 0x00000000 (0000ms, 0805ms total)
T1760 014:206 JLINK_ReadReg(R5)  returns 0x20000460 (0000ms, 0805ms total)
T1760 014:206 JLINK_ReadReg(R6)  returns 0x00000000 (0000ms, 0805ms total)
T1760 014:206 JLINK_ReadReg(R7)  returns 0x00000000 (0000ms, 0805ms total)
T1760 014:206 JLINK_ReadReg(R8)  returns 0x00000000 (0000ms, 0805ms total)
T1760 014:206 JLINK_ReadReg(R9)  returns 0x20000160 (0000ms, 0805ms total)
T1760 014:206 JLINK_ReadReg(R10)  returns 0x08009CE8 (0000ms, 0805ms total)
T1760 014:206 JLINK_ReadReg(R11)  returns 0x00000000 (0000ms, 0805ms total)
T1760 014:206 JLINK_ReadReg(R12)  returns 0x200004A0 (0000ms, 0805ms total)
T1760 014:206 JLINK_ReadReg(R13)  returns 0x20000AB0 (0000ms, 0805ms total)
T1760 014:206 JLINK_ReadReg(R14)  returns 0x080005D3 (0000ms, 0805ms total)
T1760 014:206 JLINK_ReadReg(R15)  returns 0x080005E0 (0000ms, 0805ms total)
T1760 014:206 JLINK_ReadReg(XPSR)  returns 0xA1000000 (0000ms, 0805ms total)
T1760 014:206 JLINK_ReadReg(MSP)  returns 0x20000AB0 (0000ms, 0805ms total)
T1760 014:206 JLINK_ReadReg(PSP)  returns 0x20000800 (0000ms, 0805ms total)
T1760 014:207 JLINK_ReadReg(CFBP)  returns 0x00000000 (0000ms, 0805ms total)
T1F9C 014:211 JLINK_ReadMemU32(0xE0001004, 0x0001 Items, ...) -- CPU_ReadMem(4 bytes @ 0xE0001004) -- Data:  59 57 00 00  returns 0x01 (0001ms, 0806ms total)
T1F9C 014:213 JLINK_ReadMem (0x2000000C, 0x0002 Bytes, ...) -- CPU_ReadMem(64 bytes @ 0x20000000) -- Updating C cache (64 bytes @ 0x20000000) -- Read from C cache (2 bytes @ 0x2000000C) -- Data:  00 00  returns 0x00 (0001ms, 0807ms total)
T1F9C 014:214 JLINK_ReadMem (0x00000000, 0x00FD Bytes, ...)
                JLINK_ReadMemHW(0x00000000, 0x0004 Bytes, ...) -- CPU_ReadMem(4 bytes @ 0x00000000) -- Data:  C0 0A 00 20  returns 0x00 (0001ms, 0001ms total)
                JLINK_ReadMemHW(0x08000000, 0x0004 Bytes, ...) -- CPU_ReadMem(4 bytes @ 0x08000000) -- Data:  C0 0A 00 20  returns 0x00 (0001ms, 0002ms total)
                JLINK_WriteMemHW(0x00000000, 0x0004 Bytes, ...) -- Data:  01 00 01 00 -- CPU_WriteMem(4 bytes @ 0x00000000)  returns 0x04 (0001ms, 0003ms total)
                JLINK_ReadMemHW(0x00000000, 0x0004 Bytes, ...) -- CPU_ReadMem(4 bytes @ 0x00000000) -- Data:  C0 0A 00 20  returns 0x00 (0002ms, 0005ms total)
               -- MA0 is in flash -- Unmirror addr 0x00000000 -- CPU_ReadMem(256 bytes @ 0x08000000) -- Updating C cache (256 bytes @ 0x08000000) -- Read from C cache (253 bytes @ 0x08000000) -- Data:  C0 0A 00 20 21 4B 00 08 E5 03 00 08 E7 03 00 08 ...  returns 0x00 (0008ms, 0815ms total)
T1F9C 014:236 JLINK_ReadMem (0x080005E0, 0x003C Bytes, ...) -- CPU_ReadMem(64 bytes @ 0x08000600) -- Updating C cache (64 bytes @ 0x08000600) -- Read from C cache (60 bytes @ 0x080005E0) -- Data:  08 46 00 78 4F F4 7A 71 48 43 27 49 08 80 10 BD ...  returns 0x00 (0001ms, 0816ms total)
T1760 014:554 JLINK_Step() -- Read from C cache (2 bytes @ 0x080005E0) -- Simulated  returns 0x00 (0001ms, 0817ms total)
T1760 014:555 JLINK_ReadReg(R15)  returns 0x080005E2 (0000ms, 0817ms total)
T1760 014:555 JLINK_ReadReg(XPSR)  returns 0xA1000000 (0000ms, 0817ms total)
T1760 014:555 JLINK_Step() -- Read from C cache (2 bytes @ 0x080005E2) -- Read from C cache (1 bytes @ 0x20000030) -- Simulated  returns 0x00 (0000ms, 0817ms total)
T1760 014:555 JLINK_ReadReg(R15)  returns 0x080005E4 (0000ms, 0817ms total)
T1760 014:555 JLINK_ReadReg(XPSR)  returns 0xA1000000 (0000ms, 0817ms total)
T1760 014:555 JLINK_Step() -- Read from C cache (2 bytes @ 0x080005E4) -- Read from C cache (2 bytes @ 0x080005E6) -- Simulated  returns 0x00 (0000ms, 0817ms total)
T1760 014:556 JLINK_ReadReg(R15)  returns 0x080005E8 (0000ms, 0817ms total)
T1760 014:556 JLINK_ReadReg(XPSR)  returns 0xA1000000 (0000ms, 0817ms total)
T1760 014:556 JLINK_Step() -- Read from C cache (2 bytes @ 0x080005E8) -- Simulated  returns 0x00 (0000ms, 0817ms total)
T1760 014:556 JLINK_ReadReg(R15)  returns 0x080005EA (0000ms, 0817ms total)
T1760 014:556 JLINK_ReadReg(XPSR)  returns 0x21000000 (0000ms, 0817ms total)
T1760 014:556 JLINK_Step() -- Read from C cache (2 bytes @ 0x080005EA) -- Read from C cache (4 bytes @ 0x08000688) -- Simulated  returns 0x00 (0004ms, 0821ms total)
T1760 014:560 JLINK_ReadReg(R15)  returns 0x080005EC (0000ms, 0821ms total)
T1760 014:560 JLINK_ReadReg(XPSR)  returns 0x21000000 (0000ms, 0821ms total)
T1760 014:560 JLINK_Step() -- Read from C cache (2 bytes @ 0x080005EC) -- CPU_WriteMem(2 bytes @ 0x20000032) -- Invalidate MA0 status -- Simulated  returns 0x00 (0001ms, 0822ms total)
T1760 014:561 JLINK_ReadReg(R15)  returns 0x080005EE (0000ms, 0822ms total)
T1760 014:561 JLINK_ReadReg(XPSR)  returns 0x21000000 (0000ms, 0822ms total)
T1760 014:561 JLINK_ReadReg(R0)  returns 0x00002328 (0000ms, 0822ms total)
T1760 014:561 JLINK_ReadReg(R1)  returns 0x20000032 (0000ms, 0822ms total)
T1760 014:561 JLINK_ReadReg(R2)  returns 0xE000E000 (0000ms, 0822ms total)
T1760 014:561 JLINK_ReadReg(R3)  returns 0x200006C0 (0000ms, 0822ms total)
T1760 014:561 JLINK_ReadReg(R4)  returns 0x00000000 (0000ms, 0822ms total)
T1760 014:561 JLINK_ReadReg(R5)  returns 0x20000460 (0001ms, 0823ms total)
T1760 014:562 JLINK_ReadReg(R6)  returns 0x00000000 (0000ms, 0823ms total)
T1760 014:562 JLINK_ReadReg(R7)  returns 0x00000000 (0000ms, 0823ms total)
T1760 014:562 JLINK_ReadReg(R8)  returns 0x00000000 (0000ms, 0823ms total)
T1760 014:562 JLINK_ReadReg(R9)  returns 0x20000160 (0000ms, 0823ms total)
T1760 014:562 JLINK_ReadReg(R10)  returns 0x08009CE8 (0000ms, 0823ms total)
T1760 014:562 JLINK_ReadReg(R11)  returns 0x00000000 (0000ms, 0823ms total)
T1760 014:562 JLINK_ReadReg(R12)  returns 0x200004A0 (0000ms, 0823ms total)
T1760 014:562 JLINK_ReadReg(R13)  returns 0x20000AB0 (0000ms, 0823ms total)
T1760 014:562 JLINK_ReadReg(R14)  returns 0x080005D3 (0000ms, 0823ms total)
T1760 014:562 JLINK_ReadReg(R15)  returns 0x080005EE (0000ms, 0823ms total)
T1760 014:562 JLINK_ReadReg(XPSR)  returns 0x21000000 (0000ms, 0823ms total)
T1760 014:562 JLINK_ReadReg(MSP)  returns 0x20000AB0 (0000ms, 0823ms total)
T1760 014:562 JLINK_ReadReg(PSP)  returns 0x20000800 (0000ms, 0823ms total)
T1760 014:562 JLINK_ReadReg(CFBP)  returns 0x00000000 (0000ms, 0823ms total)
T1F9C 014:566 JLINK_ReadMemU32(0xE0001004, 0x0001 Items, ...) -- Data:  59 57 00 00  returns 0x01 (0000ms, 0823ms total)
T1F9C 014:567 JLINK_ReadMem (0x2000000C, 0x0002 Bytes, ...) -- CPU_ReadMem(64 bytes @ 0x20000000) -- Updating C cache (64 bytes @ 0x20000000) -- Read from C cache (2 bytes @ 0x2000000C) -- Data:  00 00  returns 0x00 (0001ms, 0824ms total)
T1F9C 014:568 JLINK_ReadMem (0x00000000, 0x00FD Bytes, ...)
                JLINK_ReadMemHW(0x00000000, 0x0004 Bytes, ...) -- CPU_ReadMem(4 bytes @ 0x00000000) -- Data:  C0 0A 00 20  returns 0x00 (0001ms, 0001ms total)
                JLINK_ReadMemHW(0x08000000, 0x0004 Bytes, ...) -- CPU_ReadMem(4 bytes @ 0x08000000) -- Data:  C0 0A 00 20  returns 0x00 (0002ms, 0003ms total)
                JLINK_WriteMemHW(0x00000000, 0x0004 Bytes, ...) -- Data:  01 00 01 00 -- CPU_WriteMem(4 bytes @ 0x00000000)  returns 0x04 (0000ms, 0003ms total)
                JLINK_ReadMemHW(0x00000000, 0x0004 Bytes, ...) -- CPU_ReadMem(4 bytes @ 0x00000000) -- Data:  C0 0A 00 20  returns 0x00 (0002ms, 0005ms total)
               -- MA0 is in flash -- Unmirror addr 0x00000000 -- Read from C cache (253 bytes @ 0x08000000) -- Data:  C0 0A 00 20 21 4B 00 08 E5 03 00 08 E7 03 00 08 ...  returns 0x00 (0005ms, 0829ms total)
T1F9C 014:594 JLINK_ReadMem (0x080005EE, 0x0002 Bytes, ...) -- Read from C cache (2 bytes @ 0x080005EE) -- Data:  10 BD  returns 0x00 (0000ms, 0829ms total)
T1F9C 014:594 JLINK_ReadMem (0x080005F0, 0x003C Bytes, ...) -- Read from C cache (60 bytes @ 0x080005F0) -- Data:  01 46 24 4A 12 78 4A 43 4F F0 E0 23 5A 61 00 22 ...  returns 0x00 (0000ms, 0829ms total)
T1760 014:808 JLINK_Step() -- Read from C cache (2 bytes @ 0x080005EE) -- CPU_ReadMem(64 bytes @ 0x20000A80) -- Updating C cache (64 bytes @ 0x20000A80) -- Read from C cache (8 bytes @ 0x20000AB0) -- Simulated  returns 0x00 (0003ms, 0832ms total)
T1760 014:811 JLINK_ReadReg(R15)  returns 0x08000220 (0000ms, 0832ms total)
T1760 014:811 JLINK_ReadReg(XPSR)  returns 0x21000000 (0000ms, 0832ms total)
T1760 014:811 JLINK_ReadReg(R0)  returns 0x00002328 (0000ms, 0832ms total)
T1760 014:811 JLINK_ReadReg(R1)  returns 0x20000032 (0000ms, 0832ms total)
T1760 014:811 JLINK_ReadReg(R2)  returns 0xE000E000 (0000ms, 0832ms total)
T1760 014:811 JLINK_ReadReg(R3)  returns 0x200006C0 (0000ms, 0832ms total)
T1760 014:811 JLINK_ReadReg(R4)  returns 0x00000000 (0000ms, 0832ms total)
T1760 014:811 JLINK_ReadReg(R5)  returns 0x20000460 (0000ms, 0832ms total)
T1760 014:811 JLINK_ReadReg(R6)  returns 0x00000000 (0000ms, 0832ms total)
T1760 014:812 JLINK_ReadReg(R7)  returns 0x00000000 (0000ms, 0832ms total)
T1760 014:812 JLINK_ReadReg(R8)  returns 0x00000000 (0000ms, 0832ms total)
T1760 014:812 JLINK_ReadReg(R9)  returns 0x20000160 (0000ms, 0832ms total)
T1760 014:812 JLINK_ReadReg(R10)  returns 0x08009CE8 (0000ms, 0832ms total)
T1760 014:812 JLINK_ReadReg(R11)  returns 0x00000000 (0000ms, 0832ms total)
T1760 014:812 JLINK_ReadReg(R12)  returns 0x200004A0 (0000ms, 0832ms total)
T1760 014:812 JLINK_ReadReg(R13)  returns 0x20000AB8 (0000ms, 0832ms total)
T1760 014:812 JLINK_ReadReg(R14)  returns 0x080005D3 (0000ms, 0832ms total)
T1760 014:812 JLINK_ReadReg(R15)  returns 0x08000220 (0000ms, 0832ms total)
T1760 014:812 JLINK_ReadReg(XPSR)  returns 0x21000000 (0000ms, 0832ms total)
T1760 014:812 JLINK_ReadReg(MSP)  returns 0x20000AB8 (0000ms, 0832ms total)
T1760 014:812 JLINK_ReadReg(PSP)  returns 0x20000800 (0000ms, 0832ms total)
T1760 014:812 JLINK_ReadReg(CFBP)  returns 0x00000000 (0000ms, 0832ms total)
T1F9C 014:813 JLINK_ReadMemU32(0xE0001004, 0x0001 Items, ...) -- Data:  59 57 00 00  returns 0x01 (0000ms, 0832ms total)
T1F9C 014:813 JLINK_ReadMem (0x2000000C, 0x0002 Bytes, ...) -- Read from C cache (2 bytes @ 0x2000000C) -- Data:  00 00  returns 0x00 (0000ms, 0832ms total)
T1F9C 014:813 JLINK_ReadMem (0x00000000, 0x00FD Bytes, ...) -- Unmirror addr 0x00000000 -- Read from C cache (253 bytes @ 0x08000000) -- Data:  C0 0A 00 20 21 4B 00 08 E5 03 00 08 E7 03 00 08 ...  returns 0x00 (0001ms, 0833ms total)
T1F9C 014:822 JLINK_ReadMem (0x08000220, 0x003C Bytes, ...) -- CPU_ReadMem(128 bytes @ 0x08000200) -- Updating C cache (128 bytes @ 0x08000200) -- Read from C cache (60 bytes @ 0x08000220) -- Data:  00 F0 34 FA 00 F0 D8 FA 00 F0 0A FB 4F F4 16 50 ...  returns 0x00 (0003ms, 0836ms total)
T1760 015:047 JLINK_SetBPEx(Addr = 0x08000224, Type = 0xFFFFFFF2)  returns 0x0000000B (0001ms, 0837ms total)
T1760 015:048 JLINK_SetBPEx(Addr = 0x080023FE, Type = 0xFFFFFFF2)  returns 0x0000000C (0000ms, 0837ms total)
T1760 015:048 JLINK_SetBPEx(Addr = 0x080023B4, Type = 0xFFFFFFF2)  returns 0x0000000D (0000ms, 0837ms total)
T1760 015:048 JLINK_SetBPEx(Addr = 0x08001692, Type = 0xFFFFFFF2)  returns 0x0000000E (0000ms, 0837ms total)
T1760 015:048 JLINK_SetBPEx(Addr = 0x0800168A, Type = 0xFFFFFFF2)  returns 0x0000000F (0000ms, 0837ms total)
T1760 015:048 JLINK_Go() -- CPU_WriteMem(4 bytes @ 0xE0002008) -- CPU_WriteMem(4 bytes @ 0xE000200C) -- CPU_WriteMem(4 bytes @ 0xE0002010) -- CPU_WriteMem(4 bytes @ 0xE0002014) -- CPU_WriteMem(4 bytes @ 0xE0002018) -- CPU_WriteMem(4 bytes @ 0xE000201C) -- Invalidate MA0 status (0010ms, 0847ms total)
T1760 015:158 JLINK_IsHalted()  returns TRUE (0006ms, 0853ms total)
T1760 015:164 JLINK_Halt()  returns 0x00 (0000ms, 0847ms total)
T1760 015:164 JLINK_IsHalted()  returns TRUE (0000ms, 0847ms total)
T1760 015:164 JLINK_IsHalted()  returns TRUE (0000ms, 0847ms total)
T1760 015:164 JLINK_IsHalted()  returns TRUE (0000ms, 0847ms total)
T1760 015:164 JLINK_ReadReg(R15)  returns 0x08000224 (0000ms, 0847ms total)
T1760 015:164 JLINK_ReadReg(XPSR)  returns 0x61000000 (0000ms, 0847ms total)
T1760 015:164 JLINK_ClrBPEx(BPHandle = 0x0000000B)  returns 0x00 (0001ms, 0848ms total)
T1760 015:165 JLINK_ClrBPEx(BPHandle = 0x0000000C)  returns 0x00 (0000ms, 0848ms total)
T1760 015:165 JLINK_ClrBPEx(BPHandle = 0x0000000D)  returns 0x00 (0000ms, 0848ms total)
T1760 015:165 JLINK_ClrBPEx(BPHandle = 0x0000000E)  returns 0x00 (0000ms, 0848ms total)
T1760 015:165 JLINK_ClrBPEx(BPHandle = 0x0000000F)  returns 0x00 (0000ms, 0848ms total)
T1760 015:165 JLINK_ReadMemU32(0xE000ED30, 0x0001 Items, ...) -- CPU_ReadMem(4 bytes @ 0xE000ED30) -- Data:  03 00 00 00  returns 0x01 (0001ms, 0849ms total)
T1760 015:166 JLINK_ReadMemU32(0xE0001028, 0x0001 Items, ...) -- CPU_ReadMem(4 bytes @ 0xE0001028) -- Data:  00 00 00 00  returns 0x01 (0001ms, 0850ms total)
T1760 015:167 JLINK_ReadMemU32(0xE0001038, 0x0001 Items, ...) -- CPU_ReadMem(4 bytes @ 0xE0001038) -- Data:  00 02 00 00  returns 0x01 (0001ms, 0851ms total)
T1760 015:168 JLINK_ReadMemU32(0xE0001048, 0x0001 Items, ...) -- CPU_ReadMem(4 bytes @ 0xE0001048) -- Data:  00 00 00 00  returns 0x01 (0001ms, 0852ms total)
T1760 015:169 JLINK_ReadMemU32(0xE0001058, 0x0001 Items, ...) -- CPU_ReadMem(4 bytes @ 0xE0001058) -- Data:  00 00 00 00  returns 0x01 (0001ms, 0853ms total)
T1760 015:171 JLINK_ReadReg(R0)  returns 0x20000AB0 (0000ms, 0853ms total)
T1760 015:171 JLINK_ReadReg(R1)  returns 0x00000050 (0000ms, 0853ms total)
T1760 015:171 JLINK_ReadReg(R2)  returns 0x00000003 (0000ms, 0853ms total)
T1760 015:171 JLINK_ReadReg(R3)  returns 0x0101011D (0000ms, 0853ms total)
T1760 015:171 JLINK_ReadReg(R4)  returns 0x00000000 (0000ms, 0853ms total)
T1760 015:171 JLINK_ReadReg(R5)  returns 0x20000460 (0000ms, 0853ms total)
T1760 015:171 JLINK_ReadReg(R6)  returns 0x00000000 (0001ms, 0854ms total)
T1760 015:172 JLINK_ReadReg(R7)  returns 0x00000000 (0000ms, 0854ms total)
T1760 015:172 JLINK_ReadReg(R8)  returns 0x00000000 (0000ms, 0854ms total)
T1760 015:172 JLINK_ReadReg(R9)  returns 0x20000160 (0000ms, 0854ms total)
